                      code model test: d_source + d_state
                      Transient Analysis  Thu Dec 10 12:05:02  2020
--------------------------------------------------------------------------------
Index   time            aout            chrg            vcc             
--------------------------------------------------------------------------------
0	0.000000e+00	1.000000e+00	0.000000e+00	0.000000e+00	
1	1.250000e-13	1.000000e+00	1.015602e-10	6.250000e-07	
2	2.500000e-13	1.000000e+00	1.046850e-10	1.250000e-06	
3	5.000000e-13	1.000000e+00	1.140594e-10	2.500000e-06	
4	1.000000e-12	1.000000e+00	1.515581e-10	5.000000e-06	
5	2.000000e-12	1.000000e+00	3.015536e-10	1.000000e-05	
6	4.000000e-12	1.000000e+00	9.015295e-10	2.000000e-05	
7	8.000000e-12	1.000000e+00	3.301361e-09	4.000000e-05	
8	1.600000e-11	1.000000e+00	1.290007e-08	8.000000e-05	
9	3.200000e-11	1.000000e+00	5.128979e-08	1.600000e-04	
10	6.400000e-11	1.000000e+00	2.048078e-07	3.200000e-04	
11	1.280000e-10	1.000000e+00	8.185529e-07	6.400000e-04	
12	2.280000e-10	1.000000e+00	2.595139e-06	1.140000e-03	
13	3.280000e-10	1.000000e+00	5.367177e-06	1.640000e-03	
14	4.280000e-10	1.000000e+00	9.132677e-06	2.140000e-03	
15	5.280000e-10	1.000000e+00	1.388965e-05	2.640000e-03	
16	6.280000e-10	1.000000e+00	1.963613e-05	3.140000e-03	
17	7.280000e-10	1.000000e+00	2.637012e-05	3.640000e-03	
18	8.280000e-10	1.000000e+00	3.408966e-05	4.140000e-03	
19	9.280000e-10	1.000000e+00	4.279278e-05	4.640000e-03	
20	1.028000e-09	1.000000e+00	5.247751e-05	5.140000e-03	
21	1.128000e-09	1.000000e+00	6.314189e-05	5.640000e-03	
22	1.228000e-09	1.000000e+00	7.478396e-05	6.140000e-03	
23	1.328000e-09	1.000000e+00	8.740178e-05	6.640000e-03	
24	1.428000e-09	1.000000e+00	1.009934e-04	7.140000e-03	
25	1.528000e-09	1.000000e+00	1.155568e-04	7.640000e-03	
26	1.628000e-09	1.000000e+00	1.310902e-04	8.140000e-03	
27	1.728000e-09	1.000000e+00	1.475915e-04	8.640000e-03	
28	1.828000e-09	1.000000e+00	1.650589e-04	9.140000e-03	
29	1.928000e-09	1.000000e+00	1.834903e-04	9.640000e-03	
30	2.028000e-09	1.000000e+00	2.028839e-04	1.014000e-02	
31	2.128000e-09	1.000000e+00	2.232378e-04	1.064000e-02	
32	2.228000e-09	1.000000e+00	2.445500e-04	1.114000e-02	
33	2.328000e-09	1.000000e+00	2.668187e-04	1.164000e-02	
34	2.428000e-09	1.000000e+00	2.900418e-04	1.214000e-02	
35	2.528000e-09	1.000000e+00	3.142175e-04	1.264000e-02	
36	2.628000e-09	1.000000e+00	3.393440e-04	1.314000e-02	
37	2.728000e-09	1.000000e+00	3.654192e-04	1.364000e-02	
38	2.828000e-09	1.000000e+00	3.924413e-04	1.414000e-02	
39	2.928000e-09	1.000000e+00	4.204085e-04	1.464000e-02	
40	3.028000e-09	1.000000e+00	4.493188e-04	1.514000e-02	
41	3.128000e-09	1.000000e+00	4.791703e-04	1.564000e-02	
42	3.228000e-09	1.000000e+00	5.099612e-04	1.614000e-02	
43	3.328000e-09	1.000000e+00	5.416895e-04	1.664000e-02	
44	3.428000e-09	1.000000e+00	5.743535e-04	1.714000e-02	
45	3.528000e-09	1.000000e+00	6.079512e-04	1.764000e-02	
46	3.628000e-09	1.000000e+00	6.424807e-04	1.814000e-02	
47	3.728000e-09	1.000000e+00	6.779403e-04	1.864000e-02	
48	3.828000e-09	1.000000e+00	7.143280e-04	1.914000e-02	
49	3.928000e-09	1.000000e+00	7.516421e-04	1.964000e-02	
50	4.028000e-09	1.000000e+00	7.898805e-04	2.014000e-02	
51	4.128000e-09	1.000000e+00	8.290416e-04	2.064000e-02	
52	4.228000e-09	1.000000e+00	8.691235e-04	2.114000e-02	
53	4.328000e-09	1.000000e+00	9.101242e-04	2.164000e-02	
54	4.428000e-09	1.000000e+00	9.520420e-04	2.214000e-02	

Index   time            aout            chrg            vcc             
--------------------------------------------------------------------------------
55	4.528000e-09	1.000000e+00	9.948751e-04	2.264000e-02	
56	4.628000e-09	1.000000e+00	1.038622e-03	2.314000e-02	
57	4.728000e-09	1.000000e+00	1.083280e-03	2.364000e-02	
58	4.828000e-09	1.000000e+00	1.128848e-03	2.414000e-02	
59	4.928000e-09	1.000000e+00	1.175323e-03	2.464000e-02	
60	5.028000e-09	1.000000e+00	1.222705e-03	2.514000e-02	
61	5.128000e-09	1.000000e+00	1.270992e-03	2.564000e-02	
62	5.228000e-09	1.000000e+00	1.320181e-03	2.614000e-02	
63	5.328000e-09	1.000000e+00	1.370270e-03	2.664000e-02	
64	5.428000e-09	1.000000e+00	1.421259e-03	2.714000e-02	
65	5.528000e-09	1.000000e+00	1.473144e-03	2.764000e-02	
66	5.628000e-09	1.000000e+00	1.525925e-03	2.814000e-02	
67	5.728000e-09	1.000000e+00	1.579600e-03	2.864000e-02	
68	5.828000e-09	1.000000e+00	1.634166e-03	2.914000e-02	
69	5.928000e-09	1.000000e+00	1.689622e-03	2.964000e-02	
70	6.028000e-09	1.000000e+00	1.745966e-03	3.014000e-02	
71	6.128000e-09	1.000000e+00	1.803197e-03	3.064000e-02	
72	6.228000e-09	1.000000e+00	1.861313e-03	3.114000e-02	
73	6.328000e-09	1.000000e+00	1.920311e-03	3.164000e-02	
74	6.428000e-09	1.000000e+00	1.980191e-03	3.214000e-02	
75	6.528000e-09	1.000000e+00	2.040949e-03	3.264000e-02	
76	6.628000e-09	1.000000e+00	2.102586e-03	3.314000e-02	
77	6.728000e-09	1.000000e+00	2.165098e-03	3.364000e-02	
78	6.828000e-09	1.000000e+00	2.228485e-03	3.414000e-02	
79	6.928000e-09	1.000000e+00	2.292743e-03	3.464000e-02	
80	7.028000e-09	1.000000e+00	2.357873e-03	3.514000e-02	
81	7.128000e-09	1.000000e+00	2.423871e-03	3.564000e-02	
82	7.228000e-09	1.000000e+00	2.490736e-03	3.614000e-02	
83	7.240500e-09	1.000000e+00	2.499162e-03	3.620250e-02	
84	7.265500e-09	1.000000e+00	2.516041e-03	3.632750e-02	
85	7.315500e-09	1.000000e+00	2.549961e-03	3.657750e-02	
86	7.415500e-09	1.000000e+00	2.618447e-03	3.707750e-02	
87	7.415500e-09	1.000000e+00	2.618447e-03	3.707750e-02	
88	7.415500e-09	1.000000e+00	2.618447e-03	3.707750e-02	
89	7.415500e-09	1.000000e+00	2.618447e-03	3.707750e-02	
90	7.415500e-09	1.000000e+00	2.618447e-03	3.707750e-02	
91	7.415500e-09	1.000000e+00	2.618447e-03	3.707750e-02	
92	7.415500e-09	1.000000e+00	2.618447e-03	3.707750e-02	
93	7.415500e-09	1.000000e+00	2.618447e-03	3.707750e-02	
94	7.415500e-09	1.000000e+00	2.618447e-03	3.707750e-02	
95	7.415500e-09	1.000000e+00	2.618447e-03	3.707750e-02	
96	7.415500e-09	1.000000e+00	2.618447e-03	3.707750e-02	
97	7.415500e-09	1.000000e+00	2.618447e-03	3.707750e-02	
98	7.415500e-09	1.000000e+00	2.618447e-03	3.707750e-02	
99	7.415500e-09	1.000000e+00	2.618447e-03	3.707750e-02	
100	7.415500e-09	1.000000e+00	2.618447e-03	3.707750e-02	
101	7.415500e-09	1.000000e+00	2.618447e-03	3.707750e-02	
102	7.415500e-09	1.000000e+00	2.618447e-03	3.707750e-02	
103	7.415500e-09	1.000000e+00	2.618447e-03	3.707750e-02	
104	7.415500e-09	1.000000e+00	2.618447e-03	3.707750e-02	
105	7.415500e-09	1.000000e+00	2.618447e-03	3.707750e-02	
106	7.415500e-09	1.000000e+00	2.618447e-03	3.707750e-02	
107	7.415500e-09	1.000000e+00	2.618447e-03	3.707750e-02	
108	7.415500e-09	1.000000e+00	2.618447e-03	3.707750e-02	
109	7.415500e-09	1.000000e+00	2.618447e-03	3.707750e-02	
110	7.415500e-09	1.000000e+00	2.618447e-03	3.707750e-02	
111	7.415501e-09	1.000000e+00	2.618447e-03	3.707750e-02	
112	7.415501e-09	1.000000e+00	2.618448e-03	3.707751e-02	

Index   time            aout            chrg            vcc             
--------------------------------------------------------------------------------
113	7.415502e-09	1.000000e+00	2.618449e-03	3.707751e-02	
114	7.415504e-09	1.000000e+00	2.618450e-03	3.707752e-02	
115	7.415508e-09	1.000000e+00	2.618453e-03	3.707754e-02	
116	7.415517e-09	1.000000e+00	2.618459e-03	3.707758e-02	
117	7.415534e-09	1.000000e+00	2.618470e-03	3.707767e-02	
118	7.415567e-09	1.000000e+00	2.618493e-03	3.707784e-02	
119	7.415634e-09	1.000000e+00	2.618540e-03	3.707817e-02	
120	7.415768e-09	1.000000e+00	2.618632e-03	3.707884e-02	
121	7.416037e-09	1.000000e+00	2.618817e-03	3.708018e-02	
122	7.416574e-09	1.000000e+00	2.619187e-03	3.708287e-02	
123	7.417647e-09	1.000000e+00	2.619927e-03	3.708824e-02	
124	7.419795e-09	1.000000e+00	2.621408e-03	3.709897e-02	
125	7.424090e-09	1.000000e+00	2.624370e-03	3.712045e-02	
126	7.432680e-09	1.000000e+00	2.630300e-03	3.716340e-02	
127	7.449860e-09	1.000000e+00	2.642178e-03	3.724930e-02	
128	7.484219e-09	1.000000e+00	2.666011e-03	3.742110e-02	
129	7.552939e-09	1.000000e+00	2.713981e-03	3.776469e-02	
130	7.652939e-09	1.000000e+00	2.784512e-03	3.826469e-02	
131	7.752939e-09	1.000000e+00	2.855901e-03	3.876469e-02	
132	7.852939e-09	1.000000e+00	2.928146e-03	3.926469e-02	
133	7.952939e-09	1.000000e+00	3.001246e-03	3.976469e-02	
134	8.052939e-09	1.000000e+00	3.075199e-03	4.026469e-02	
135	8.152939e-09	1.000000e+00	3.150003e-03	4.076469e-02	
136	8.252939e-09	1.000000e+00	3.225657e-03	4.126469e-02	
137	8.352939e-09	1.000000e+00	3.302159e-03	4.176469e-02	
138	8.452939e-09	1.000000e+00	3.379506e-03	4.226469e-02	
139	8.552939e-09	1.000000e+00	3.457698e-03	4.276469e-02	
140	8.652939e-09	1.000000e+00	3.536733e-03	4.326469e-02	
141	8.752939e-09	1.000000e+00	3.616609e-03	4.376469e-02	
142	8.852939e-09	1.000000e+00	3.697325e-03	4.426469e-02	
143	8.952939e-09	1.000000e+00	3.778878e-03	4.476469e-02	
144	9.052939e-09	1.000000e+00	3.861267e-03	4.526469e-02	
145	9.152939e-09	1.000000e+00	3.944491e-03	4.576469e-02	
146	9.252939e-09	1.000000e+00	4.028547e-03	4.626469e-02	
147	9.352939e-09	1.000000e+00	4.113435e-03	4.676469e-02	
148	9.452939e-09	1.000000e+00	4.199152e-03	4.726469e-02	
149	9.552939e-09	1.000000e+00	4.285696e-03	4.776469e-02	
150	9.652939e-09	1.000000e+00	4.373067e-03	4.826469e-02	
151	9.752939e-09	1.000000e+00	4.461262e-03	4.876469e-02	
152	9.852939e-09	1.000000e+00	4.550280e-03	4.926469e-02	
153	9.952939e-09	1.000000e+00	4.640119e-03	4.976469e-02	
154	1.005294e-08	1.000000e+00	4.730777e-03	5.026469e-02	
155	1.015294e-08	1.000000e+00	4.822253e-03	5.076469e-02	
156	1.025294e-08	1.000000e+00	4.914546e-03	5.126469e-02	
157	1.035294e-08	1.000000e+00	5.007653e-03	5.176469e-02	
158	1.045294e-08	1.000000e+00	5.101573e-03	5.226469e-02	
159	1.055294e-08	1.000000e+00	5.196305e-03	5.276469e-02	
160	1.065294e-08	1.000000e+00	5.291846e-03	5.326469e-02	
161	1.075294e-08	1.000000e+00	5.388196e-03	5.376469e-02	
162	1.085294e-08	1.000000e+00	5.485351e-03	5.426469e-02	
163	1.095294e-08	1.000000e+00	5.583312e-03	5.476469e-02	
164	1.105294e-08	1.000000e+00	5.682076e-03	5.526469e-02	
165	1.115294e-08	1.000000e+00	5.781642e-03	5.576469e-02	
166	1.125294e-08	1.000000e+00	5.882007e-03	5.626469e-02	
167	1.135294e-08	1.000000e+00	5.983172e-03	5.676469e-02	
168	1.145294e-08	1.000000e+00	6.085133e-03	5.726469e-02	
169	1.155294e-08	1.000000e+00	6.187889e-03	5.776469e-02	
170	1.165294e-08	1.000000e+00	6.291439e-03	5.826469e-02	

Index   time            aout            chrg            vcc             
--------------------------------------------------------------------------------
171	1.175294e-08	1.000000e+00	6.395781e-03	5.876469e-02	
172	1.185294e-08	1.000000e+00	6.500914e-03	5.926469e-02	
173	1.195294e-08	1.000000e+00	6.606836e-03	5.976469e-02	
174	1.205294e-08	1.000000e+00	6.713545e-03	6.026469e-02	
175	1.215294e-08	1.000000e+00	6.821040e-03	6.076469e-02	
176	1.225294e-08	1.000000e+00	6.929319e-03	6.126469e-02	
177	1.235294e-08	1.000000e+00	7.038380e-03	6.176469e-02	
178	1.245294e-08	1.000000e+00	7.148223e-03	6.226469e-02	
179	1.255294e-08	1.000000e+00	7.258845e-03	6.276469e-02	
180	1.265294e-08	1.000000e+00	7.370246e-03	6.326469e-02	
181	1.275294e-08	1.000000e+00	7.482422e-03	6.376469e-02	
182	1.285294e-08	1.000000e+00	7.595374e-03	6.426469e-02	
183	1.295294e-08	1.000000e+00	7.709099e-03	6.476469e-02	
184	1.305294e-08	1.000000e+00	7.823596e-03	6.526469e-02	
185	1.315294e-08	1.000000e+00	7.938863e-03	6.576469e-02	
186	1.325294e-08	1.000000e+00	8.054898e-03	6.626469e-02	
187	1.335294e-08	1.000000e+00	8.171701e-03	6.676469e-02	
188	1.345294e-08	1.000000e+00	8.289269e-03	6.726469e-02	
189	1.355294e-08	1.000000e+00	8.407602e-03	6.776469e-02	
190	1.365294e-08	1.000000e+00	8.526697e-03	6.826469e-02	
191	1.375294e-08	1.000000e+00	8.646553e-03	6.876469e-02	
192	1.385294e-08	1.000000e+00	8.767169e-03	6.926469e-02	
193	1.395294e-08	1.000000e+00	8.888542e-03	6.976469e-02	
194	1.405294e-08	1.000000e+00	9.010673e-03	7.026469e-02	
195	1.415294e-08	1.000000e+00	9.133558e-03	7.076469e-02	
196	1.425294e-08	1.000000e+00	9.257196e-03	7.126469e-02	
197	1.435294e-08	1.000000e+00	9.381587e-03	7.176469e-02	
198	1.445294e-08	1.000000e+00	9.506728e-03	7.226469e-02	
199	1.455294e-08	1.000000e+00	9.632618e-03	7.276469e-02	
200	1.465294e-08	1.000000e+00	9.759256e-03	7.326469e-02	
201	1.475294e-08	1.000000e+00	9.886639e-03	7.376469e-02	
202	1.485294e-08	1.000000e+00	1.001477e-02	7.426469e-02	
203	1.495294e-08	1.000000e+00	1.014364e-02	7.476469e-02	
204	1.505294e-08	1.000000e+00	1.027325e-02	7.526469e-02	
205	1.515294e-08	1.000000e+00	1.040360e-02	7.576469e-02	
206	1.525294e-08	1.000000e+00	1.053469e-02	7.626469e-02	
207	1.535294e-08	1.000000e+00	1.066652e-02	7.676469e-02	
208	1.545294e-08	1.000000e+00	1.079909e-02	7.726469e-02	
209	1.555294e-08	1.000000e+00	1.093238e-02	7.776469e-02	
210	1.565294e-08	1.000000e+00	1.106641e-02	7.826469e-02	
211	1.575294e-08	1.000000e+00	1.120118e-02	7.876469e-02	
212	1.585294e-08	1.000000e+00	1.133667e-02	7.926469e-02	
213	1.595294e-08	1.000000e+00	1.147289e-02	7.976469e-02	
214	1.605294e-08	1.000000e+00	1.160983e-02	8.026469e-02	
215	1.615294e-08	1.000000e+00	1.174751e-02	8.076469e-02	
216	1.625294e-08	1.000000e+00	1.188590e-02	8.126469e-02	
217	1.635294e-08	1.000000e+00	1.202502e-02	8.176469e-02	
218	1.645294e-08	1.000000e+00	1.216486e-02	8.226469e-02	
219	1.655294e-08	1.000000e+00	1.230542e-02	8.276469e-02	
220	1.665294e-08	1.000000e+00	1.244670e-02	8.326469e-02	
221	1.675294e-08	1.000000e+00	1.258869e-02	8.376469e-02	
222	1.685294e-08	1.000000e+00	1.273140e-02	8.426469e-02	
223	1.695294e-08	1.000000e+00	1.287482e-02	8.476469e-02	
224	1.705294e-08	1.000000e+00	1.301896e-02	8.526469e-02	
225	1.715294e-08	1.000000e+00	1.316381e-02	8.576469e-02	
226	1.725294e-08	1.000000e+00	1.330936e-02	8.626469e-02	
227	1.735294e-08	1.000000e+00	1.345563e-02	8.676469e-02	
228	1.745294e-08	1.000000e+00	1.360260e-02	8.726469e-02	

Index   time            aout            chrg            vcc             
--------------------------------------------------------------------------------
229	1.755294e-08	1.000000e+00	1.375027e-02	8.776469e-02	
230	1.765294e-08	1.000000e+00	1.389865e-02	8.826469e-02	
231	1.775294e-08	1.000000e+00	1.404774e-02	8.876469e-02	
232	1.785294e-08	1.000000e+00	1.419752e-02	8.926469e-02	
233	1.795294e-08	1.000000e+00	1.434801e-02	8.976469e-02	
234	1.805294e-08	1.000000e+00	1.449919e-02	9.026469e-02	
235	1.815294e-08	1.000000e+00	1.465107e-02	9.076469e-02	
236	1.825294e-08	1.000000e+00	1.480364e-02	9.126469e-02	
237	1.835294e-08	1.000000e+00	1.495691e-02	9.176469e-02	
238	1.845294e-08	1.000000e+00	1.511087e-02	9.226469e-02	
239	1.855294e-08	1.000000e+00	1.526552e-02	9.276469e-02	
240	1.865294e-08	1.000000e+00	1.542087e-02	9.326469e-02	
241	1.875294e-08	1.000000e+00	1.557690e-02	9.376469e-02	
242	1.885294e-08	1.000000e+00	1.573362e-02	9.426469e-02	
243	1.895294e-08	1.000000e+00	1.589102e-02	9.476469e-02	
244	1.905294e-08	1.000000e+00	1.604911e-02	9.526469e-02	
245	1.915294e-08	1.000000e+00	1.620788e-02	9.576469e-02	
246	1.925294e-08	1.000000e+00	1.636734e-02	9.626469e-02	
247	1.935294e-08	1.000000e+00	1.652747e-02	9.676469e-02	
248	1.945294e-08	1.000000e+00	1.668829e-02	9.726469e-02	
249	1.955294e-08	1.000000e+00	1.684978e-02	9.776469e-02	
250	1.965294e-08	1.000000e+00	1.701195e-02	9.826469e-02	
251	1.975294e-08	1.000000e+00	1.717479e-02	9.876469e-02	
252	1.985294e-08	1.000000e+00	1.733831e-02	9.926469e-02	
253	1.995294e-08	1.000000e+00	1.750249e-02	9.976469e-02	
254	2.005294e-08	1.000000e+00	1.766735e-02	1.002647e-01	
255	2.015294e-08	1.000000e+00	1.783288e-02	1.007647e-01	
256	2.025294e-08	1.000000e+00	1.799908e-02	1.012647e-01	
257	2.035294e-08	1.000000e+00	1.816594e-02	1.017647e-01	
258	2.045294e-08	1.000000e+00	1.833347e-02	1.022647e-01	
259	2.055294e-08	1.000000e+00	1.850167e-02	1.027647e-01	
260	2.065294e-08	1.000000e+00	1.867053e-02	1.032647e-01	
261	2.075294e-08	1.000000e+00	1.884004e-02	1.037647e-01	
262	2.085294e-08	1.000000e+00	1.901022e-02	1.042647e-01	
263	2.095294e-08	1.000000e+00	1.918106e-02	1.047647e-01	
264	2.105294e-08	1.000000e+00	1.935256e-02	1.052647e-01	
265	2.115294e-08	1.000000e+00	1.952471e-02	1.057647e-01	
266	2.125294e-08	1.000000e+00	1.969752e-02	1.062647e-01	
267	2.135294e-08	1.000000e+00	1.987098e-02	1.067647e-01	
268	2.145294e-08	1.000000e+00	2.004509e-02	1.072647e-01	
269	2.155294e-08	1.000000e+00	2.021986e-02	1.077647e-01	
270	2.165294e-08	1.000000e+00	2.039527e-02	1.082647e-01	
271	2.175294e-08	1.000000e+00	2.057133e-02	1.087647e-01	
272	2.185294e-08	1.000000e+00	2.074804e-02	1.092647e-01	
273	2.195294e-08	1.000000e+00	2.092540e-02	1.097647e-01	
274	2.205294e-08	1.000000e+00	2.110340e-02	1.102647e-01	
275	2.215294e-08	1.000000e+00	2.128204e-02	1.107647e-01	
276	2.225294e-08	1.000000e+00	2.146133e-02	1.112647e-01	
277	2.235294e-08	1.000000e+00	2.164126e-02	1.117647e-01	
278	2.245294e-08	1.000000e+00	2.182182e-02	1.122647e-01	
279	2.255294e-08	1.000000e+00	2.200303e-02	1.127647e-01	
280	2.265294e-08	1.000000e+00	2.218487e-02	1.132647e-01	
281	2.275294e-08	1.000000e+00	2.236735e-02	1.137647e-01	
282	2.285294e-08	1.000000e+00	2.255046e-02	1.142647e-01	
283	2.295294e-08	1.000000e+00	2.273420e-02	1.147647e-01	
284	2.305294e-08	1.000000e+00	2.291858e-02	1.152647e-01	
285	2.315294e-08	1.000000e+00	2.310359e-02	1.157647e-01	
286	2.325294e-08	1.000000e+00	2.328922e-02	1.162647e-01	

Index   time            aout            chrg            vcc             
--------------------------------------------------------------------------------
287	2.335294e-08	1.000000e+00	2.347549e-02	1.167647e-01	
288	2.345294e-08	1.000000e+00	2.366238e-02	1.172647e-01	
289	2.355294e-08	1.000000e+00	2.384990e-02	1.177647e-01	
290	2.365294e-08	1.000000e+00	2.403804e-02	1.182647e-01	
291	2.375294e-08	1.000000e+00	2.422680e-02	1.187647e-01	
292	2.385294e-08	1.000000e+00	2.441619e-02	1.192647e-01	
293	2.395294e-08	1.000000e+00	2.460619e-02	1.197647e-01	
294	2.405294e-08	1.000000e+00	2.479682e-02	1.202647e-01	
295	2.415294e-08	1.000000e+00	2.498807e-02	1.207647e-01	
296	2.425294e-08	1.000000e+00	2.517993e-02	1.212647e-01	
297	2.435294e-08	1.000000e+00	2.537240e-02	1.217647e-01	
298	2.445294e-08	1.000000e+00	2.556550e-02	1.222647e-01	
299	2.455294e-08	1.000000e+00	2.575920e-02	1.227647e-01	
300	2.465294e-08	1.000000e+00	2.595352e-02	1.232647e-01	
301	2.475294e-08	1.000000e+00	2.614844e-02	1.237647e-01	
302	2.485294e-08	1.000000e+00	2.634398e-02	1.242647e-01	
303	2.495294e-08	1.000000e+00	2.654013e-02	1.247647e-01	
304	2.505294e-08	1.000000e+00	2.673688e-02	1.252647e-01	
305	2.515294e-08	1.000000e+00	2.693424e-02	1.257647e-01	
306	2.525294e-08	1.000000e+00	2.713220e-02	1.262647e-01	
307	2.535294e-08	1.000000e+00	2.733077e-02	1.267647e-01	
308	2.545294e-08	1.000000e+00	2.752994e-02	1.272647e-01	
309	2.555294e-08	1.000000e+00	2.772971e-02	1.277647e-01	
310	2.565294e-08	1.000000e+00	2.793007e-02	1.282647e-01	
311	2.575294e-08	1.000000e+00	2.813104e-02	1.287647e-01	
312	2.585294e-08	1.000000e+00	2.833261e-02	1.292647e-01	
313	2.595294e-08	1.000000e+00	2.853477e-02	1.297647e-01	
314	2.605294e-08	1.000000e+00	2.873753e-02	1.302647e-01	
315	2.615294e-08	1.000000e+00	2.894088e-02	1.307647e-01	
316	2.625294e-08	1.000000e+00	2.914482e-02	1.312647e-01	
317	2.635294e-08	1.000000e+00	2.934936e-02	1.317647e-01	
318	2.645294e-08	1.000000e+00	2.955448e-02	1.322647e-01	
319	2.655294e-08	1.000000e+00	2.976020e-02	1.327647e-01	
320	2.665294e-08	1.000000e+00	2.996650e-02	1.332647e-01	
321	2.675294e-08	1.000000e+00	3.017339e-02	1.337647e-01	
322	2.685294e-08	1.000000e+00	3.038087e-02	1.342647e-01	
323	2.695294e-08	1.000000e+00	3.058892e-02	1.347647e-01	
324	2.705294e-08	1.000000e+00	3.079757e-02	1.352647e-01	
325	2.715294e-08	1.000000e+00	3.100679e-02	1.357647e-01	
326	2.725294e-08	1.000000e+00	3.121660e-02	1.362647e-01	
327	2.735294e-08	1.000000e+00	3.142698e-02	1.367647e-01	
328	2.745294e-08	1.000000e+00	3.163795e-02	1.372647e-01	
329	2.755294e-08	1.000000e+00	3.184949e-02	1.377647e-01	
330	2.765294e-08	1.000000e+00	3.206161e-02	1.382647e-01	
331	2.775294e-08	1.000000e+00	3.227430e-02	1.387647e-01	
